!CSV A.01.01
!Keysight Technologies,N5227B,US63055424,A.15.71.11
!Date: Saturday, July 19, 2025 10:23:57
!Source: Standard

BEGIN CH1_DATA
Freq(Hz),S33(DB),S33(DEG),S34(DB),S34(DEG),S43(DB),S43(DEG),S44(DB),S44(DEG)
1000000000,-0.26835743,167.81953,-76.879898,-82.556152,-86.080238,63.664528,0.0038320208,-0.10288732
1014000000,-0.28293103,165.96925,-92.704094,-123.06206,-77.826256,-147.52679,0.015799977,-0.055541024
1028000000,-0.27140096,164.09036,-74.68129,117.91238,-78.82177,174.93492,0.0051079206,-0.1592719
1042000000,-0.28553718,162.22398,-80.696182,-71.834183,-81.075371,-160.70398,0.006658976,-0.14622311
1056000000,-0.27842054,160.46286,-68.950584,-73.172394,-90.094185,-78.053673,0.01580823,-0.11769183
1070000000,-0.27789617,158.59416,-95.831711,64.686935,-82.25914,-97.138115,0.0073552197,-0.1270484
1084000000,-0.28638017,156.78809,-77.433212,-41.594746,-80.972733,-90.926193,0.0027989242,-0.23617058
1098000000,-0.28521594,154.95494,-85.185181,111.5744,-72.926559,-160.29646,0.014833702,-0.15715037
1112000000,-0.28305951,153.26778,-79.827316,-138.13211,-72.45623,30.774284,0.032726198,-0.16987467
1126000000,-0.27732524,151.44733,-76.415054,72.782608,-71.279907,85.562614,0.010501656,-0.1414564
1140000000,-0.28400758,149.77299,-80.946007,-72.606567,-76.979385,-64.041992,0.0063017653,-0.15436718
1154000000,-0.28547248,148.04085,-73.186119,-97.951866,-69.518517,-7.0116491,0.0098043662,-0.19177526
1168000000,-0.28767052,146.32402,-90.487846,55.825054,-78.137993,-77.432869,0.011241176,-0.20794778
1182000000,-0.2816349,144.55072,-79.157227,-58.79026,-80.608551,141.33241,0.0053116577,-0.2195311
1196000000,-0.28177658,142.87329,-69.589844,148.73177,-74.393784,93.044762,0.013284531,-0.20370808
1210000000,-0.28924155,141.10782,-77.719131,-94.256714,-76.255104,50.704449,-0.0038913684,-0.17305402
1224000000,-0.29023966,139.48206,-78.695435,70.238251,-76.468338,-168.54126,0.0020129441,-0.19700739
1238000000,-0.28242546,137.81462,-77.723846,43.222546,-79.272736,140.06659,0.0081112953,-0.12682408
1252000000,-0.28505978,136.05168,-75.927284,-32.626289,-74.998962,57.550465,0.012631051,-0.22434975
1266000000,-0.28893498,134.50856,-84.461411,-64.412743,-75.434715,116.15797,0.0073438492,-0.1797162
1280000000,-0.28176361,132.84648,-75.764977,151.12901,-77.020485,48.82407,0.0014638636,-0.27952561
1294000000,-0.28387603,131.20439,-71.596214,17.59617,-71.7556,-58.658237,0.019693848,-0.16172886
1308000000,-0.29288593,129.54143,-68.180702,-2.6560323,-71.822716,160.75232,0.013749031,-0.17262109
1322000000,-0.2840645,128.00259,-73.445511,101.78153,-79.390633,45.496193,0.0028599752,-0.17597678
1336000000,-0.29488021,126.32644,-68.692825,-0.53112352,-70.782028,-0.01771961,0.012393585,-0.15571277
1350000000,-0.28725207,124.76156,-80.601868,25.961897,-73.756325,-20.683023,0.013512142,-0.19181788
1364000000,-0.28866082,123.14548,-79.092522,-49.537689,-71.863838,13.745541,0.011807092,-0.20367453
1378000000,-0.28130016,121.55131,-77.446373,136.5266,-74.576859,171.59135,0.0089519722,-0.22892508
1392000000,-0.28225529,119.98778,-74.641899,107.00451,-80.695,-39.892303,0.0043575279,-0.25111988
1406000000,-0.28205863,118.32177,-72.025429,-49.845097,-72.160843,61.081268,0.015351173,-0.21774577
1420000000,-0.27086532,116.78101,-75.010757,68.624222,-78.66861,-138.37941,0.012998582,-0.2072919
1434000000,-0.27277038,115.23835,-73.697891,38.509121,-105.86809,89.087311,0.010010982,-0.16774237
1448000000,-0.27557483,113.61703,-79.952835,-98.19146,-76.297768,32.819992,0.0027875418,-0.17314462
1462000000,-0.29126737,112.17924,-77.788292,-19.895891,-77.632881,151.49007,0.0032686852,-0.16854173
1476000000,-0.2848497,110.54231,-76.901642,-5.7089262,-80.550133,68.615311,0.0070569911,-0.21344118
1490000000,-0.27384222,109.13724,-75.596382,-94.085434,-90.054314,49.029751,0.004755754,-0.22476317
1504000000,-0.27802891,107.53858,-86.61058,-114.44103,-82.085884,33.780567,0.017073397,-0.29080835
1518000000,-0.27990374,106.00775,-79.296532,81.026627,-83.448395,-97.235474,0.00052131212,-0.20613001
1532000000,-0.2751123,104.34443,-73.901329,-30.560684,-72.704353,84.442429,0.0016470706,-0.23870809
1546000000,-0.2707369,102.80284,-78.786285,-161.61404,-75.188446,151.84282,0.0076927054,-0.23586009
1560000000,-0.29521599,101.31706,-74.79409,-2.5598118,-78.558472,44.534943,0.0025992086,-0.27345973
1574000000,-0.29700485,100.00546,-78.05986,-168.67517,-87.210823,-173.46973,0.014540114,-0.20447814
1588000000,-0.25404501,98.453026,-74.07663,165.97301,-76.128693,-63.845715,0.012281559,-0.28013596
1602000000,-0.2722263,96.929611,-73.933815,-108.76598,-71.4916,54.81488,0.0089132227,-0.24303231
1616000000,-0.27688929,95.443367,-78.414413,-22.42211,-76.586731,-62.370514,0.0049977745,-0.27218196
1630000000,-0.26225728,93.897278,-93.023735,148.86279,-75.958038,-100.90264,0.0071913772,-0.27844647
1644000000,-0.28425547,92.529594,-86.04631,-112.82017,-81.855682,128.92574,0.020888329,-0.33041623
1658000000,-0.2714577,91.019691,-82.864952,84.205231,-89.941544,87.150795,0.0097589092,-0.31701791
1672000000,-0.25525221,89.526505,-78.703613,84.119774,-71.638016,-27.177502,0.014708839,-0.20276652
1686000000,-0.26864272,88.161003,-68.879013,6.7292418,-70.405556,45.567074,0.0076234532,-0.22374125
1700000000,-0.24507579,86.654449,-77.495735,124.31966,-76.405655,157.82022,0.0089943372,-0.26953301
1714000000,-0.2595565,85.248238,-93.6222,174.8322,-74.239723,-52.050323,0.012227868,-0.28078908
1728000000,-0.28244728,83.72876,-76.959702,-98.11425,-76.829651,-118.6271,0.0079500657,-0.32530412
1742000000,-0.25357899,82.2481,-68.662666,-109.15185,-69.800003,7.4927549,0.012209282,-0.25932842
1756000000,-0.26886964,80.905434,-81.178596,55.681896,-70.200035,12.051302,0.011348066,-0.27518818
1770000000,-0.25337127,79.366409,-70.717422,-166.23611,-87.897736,-100.29799,0.0066946438,-0.25897786
1784000000,-0.27293274,77.96756,-71.68512,-10.170361,-70.26844,126.73867,0.014782107,-0.24277951
1798000000,-0.26945269,76.519554,-80.446281,53.454723,-74.154503,-5.6359973,0.0099996189,-0.36029816
1812000000,-0.24574549,75.035851,-88.806496,-29.178934,-83.956009,-133.12521,0.01448903,-0.25109136
1826000000,-0.27681619,73.745514,-75.826447,125.24898,-69.338058,124.25334,0.0091927256,-0.31115088
1840000000,-0.24984021,72.28994,-84.744667,141.33163,-71.72261,-134.21646,-0.0041465815,-0.29784924
1854000000,-0.26253417,70.905334,-76.275009,-146.1931,-78.421585,-179.73662,0.021481324,-0.24162312
1868000000,-0.27046913,69.372627,-72.617325,9.423851,-73.855316,14.146297,0.022296237,-0.33927169
1882000000,-0.25694364,67.99971,-79.580688,124.25132,-74.62233,-56.01107,0.008756673,-0.30306369
1896000000,-0.26760107,66.650284,-80.255966,49.018517,-68.861267,33.84074,0.012285173,-0.30559295
1910000000,-0.24379583,65.219193,-73.892014,-146.66595,-88.047188,64.033745,0.012845276,-0.30844343
1924000000,-0.26140523,63.858971,-70.284508,-128.32983,-74.193199,132.06657,0.011362524,-0.32958037
1938000000,-0.26558077,62.473488,-73.49662,-9.9021578,-79.229683,-41.613216,0.015920682,-0.32583833
1952000000,-0.25351971,61.016281,-70.47831,32.447666,-79.346123,-49.795902,0.0044547603,-0.23813516
1966000000,-0.24134131,59.766361,-73.009972,-156.12421,-77.834175,30.435968,0.0094262334,-0.30539083
1980000000,-0.24807726,58.323463,-76.579605,-13.688026,-73.70269,115.26451,0.0083924001,-0.35357696
1994000000,-0.25253302,56.924103,-77.084045,8.7803631,-74.826622,-72.595131,0.018862981,-0.22572911
2008000000,-0.26667392,55.555191,-73.583214,-83.607956,-71.146965,68.851753,0.0021319627,-0.30976334
2022000000,-0.25563052,54.206951,-78.370819,-64.730324,-70.905006,13.243229,0.0080766734,-0.31226051
2036000000,-0.2289317,52.780365,-85.423103,-51.402424,-74.486732,62.626797,0.020335961,-0.32144871
2050000000,-0.23570636,51.532997,-85.398598,-110.71804,-74.64431,105.87423,0.0073050857,-0.30242339
2064000000,-0.24961731,50.017727,-76.280479,2.2368915,-75.64994,-59.639469,0.0033059327,-0.31823561
2078000000,-0.23720784,48.807373,-72.259392,-178.03932,-74.563072,-93.104073,0.015815452,-0.31631857
2092000000,-0.23991609,47.321243,-68.685394,-82.344879,-82.465553,-83.717583,0.010337415,-0.31793889
2106000000,-0.2407549,45.855255,-72.137146,-109.33518,-89.027527,118.54505,0.016434412,-0.2793135
2120000000,-0.25684369,44.692066,-78.131683,37.117447,-76.917229,163.18408,0.014657758,-0.32514417
2134000000,-0.25204745,43.357159,-71.286736,-43.00494,-75.530792,-77.376205,0.02158693,-0.34248123
2148000000,-0.23710422,41.726456,-76.474953,83.474182,-78.65905,142.79399,0.0028139283,-0.34681171
2162000000,-0.24170664,40.535622,-70.629135,-57.891331,-75.556931,8.7167969,0.012317697,-0.33422253
2176000000,-0.23661271,39.209087,-70.066185,102.54581,-70.410751,49.13456,0.01726626,-0.35420668
2190000000,-0.2504355,37.847561,-72.817078,-40.387321,-75.307808,-112.26704,-0.0033444602,-0.4339292
2204000000,-0.24317598,36.424213,-74.224678,59.926708,-68.270866,-128.6143,0.0099536469,-0.38173473
2218000000,-0.23603405,35.148899,-81.401451,142.41194,-74.211983,-6.1878705,0.02158384,-0.35333335
2232000000,-0.24111965,33.865944,-75.736633,-168.77995,-79.080627,-102.34919,0.0074808109,-0.35162303
2246000000,-0.22833306,32.4646,-79.849411,-94.712296,-94.781776,9.3316927,0.0083355606,-0.40162382
2260000000,-0.23040982,31.053879,-81.013512,-12.824769,-75.014801,-72.669701,0.023866912,-0.37623641
2274000000,-0.22328448,29.75849,-74.919762,93.791634,-80.996742,-141.91583,0.0052118585,-0.31533802
2288000000,-0.23204327,28.45154,-72.630966,110.41909,-80.140327,-7.5646696,0.013804251,-0.3712067
2302000000,-0.2355566,27.088846,-79.921753,-162.41869,-74.269028,-37.52784,0.0098663522,-0.39590052
2316000000,-0.22204635,25.760366,-69.897858,-72.500862,-81.439102,-80.084694,0.021773413,-0.40555933
2330000000,-0.23133253,24.316637,-73.635735,168.02379,-83.998459,-83.283897,0.012342993,-0.42414287
2344000000,-0.23219891,23.011063,-73.207375,21.113613,-80.863426,173.36282,0.030842077,-0.39904803
2358000000,-0.22466063,21.66114,-80.065796,20.369722,-79.724396,116.81071,0.0080963094,-0.3726671
2372000000,-0.22340848,20.444155,-82.755783,78.416092,-73.060135,33.834915,0.053827804,-0.50602424
2386000000,-0.2332553,19.055618,-72.181145,-83.720718,-71.253342,154.87256,0.013979197,-0.37494135
2400000000,-0.23001595,17.550894,-73.637039,19.594183,-68.071198,86.836922,0.0096530141,-0.46446019
2414000000,-0.2415044,16.365282,-78.437859,-16.562277,-82.399994,76.85778,0.018874321,-0.39155057
2428000000,-0.22449926,14.970549,-71.489304,16.140152,-72.583038,56.779411,0.010016147,-0.33066955
2442000000,-0.23722889,13.761492,-68.208626,-43.37191,-76.637947,-79.007591,0.011390924,-0.43335652
2456000000,-0.23587635,12.445869,-73.07589,-178.75465,-73.783035,174.96094,0.0073273103,-0.46746328
2470000000,-0.24121734,11.101864,-69.869492,-5.5789089,-73.298569,-136.29227,0.020750757,-0.40729868
2484000000,-0.23156051,9.772213,-73.777397,26.943748,-71.275665,-79.609482,0.0010223754,-0.42274109
2498000000,-0.23874539,8.4218607,-77.417984,85.185112,-79.026794,-154.16324,0.0049046911,-0.37876698
2512000000,-0.23650555,7.0294647,-82.783386,91.069756,-77.922363,82.39827,0.016135259,-0.36206686
2526000000,-0.21353661,5.6976438,-75.167862,-10.627708,-69.683762,35.712151,0.015468279,-0.4532201
2540000000,-0.22892678,4.4299483,-74.522285,142.97923,-81.042542,25.885429,0.014166006,-0.42855626
2554000000,-0.22413617,3.1322756,-79.969238,112.67262,-70.624039,-16.02459,-0.0036390205,-0.45413449
2568000000,-0.21580054,1.6681881,-70.321312,62.518486,-71.603195,-173.53923,0.011620183,-0.48192707
2582000000,-0.22751462,0.43270409,-69.766548,-106.12109,-70.692947,-13.63841,0.0055862218,-0.52524394
2596000000,-0.22592923,-0.87070841,-74.845268,72.775955,-73.25399,-62.423977,0.012527807,-0.48233026
2610000000,-0.23166536,-2.1534173,-85.077515,-100.14133,-68.235558,-160.27252,0.028915484,-0.40022576
2624000000,-0.22974847,-3.6685827,-75.41378,151.67531,-73.705025,124.1664,0.015214459,-0.47578537
2638000000,-0.21916543,-4.8441601,-68.393646,21.951542,-72.10968,113.74467,0.013356274,-0.54763919
2652000000,-0.2237317,-6.2448301,-67.178856,54.953342,-72.185608,134.21359,0.010435547,-0.4403381
2666000000,-0.22755691,-7.5554938,-73.760422,-167.75574,-73.218292,-11.135711,0.01724718,-0.41985685
2680000000,-0.22911261,-8.8888912,-69.134521,55.632744,-76.988686,-35.87685,0.008638869,-0.38372484
2694000000,-0.21837269,-10.173484,-82.327972,-50.060631,-72.154877,-59.522026,0.0075779734,-0.52957737
2708000000,-0.2367081,-11.52117,-70.032753,-11.019411,-76.679893,97.606522,0.0082502998,-0.45487463
2722000000,-0.22505674,-12.77713,-72.275024,27.428356,-73.759102,-144.01622,0.0090279197,-0.49067849
2736000000,-0.22792764,-14.146991,-71.787407,-178.79762,-73.60994,-121.93365,0.0077536874,-0.53196633
2750000000,-0.22467589,-15.448945,-71.213943,79.427452,-70.656662,-23.582186,0.018130429,-0.45424163
2764000000,-0.23176885,-16.789213,-80.387665,89.952072,-75.361221,108.79548,0.0061456379,-0.50746518
2778000000,-0.23101884,-18.159525,-69.869484,115.48904,-80.046402,155.26559,0.01828922,-0.4936761
2792000000,-0.22373497,-19.417635,-74.718742,-171.18138,-74.93248,-74.807617,0.007802783,-0.54874784
2806000000,-0.23955718,-20.70545,-78.104691,-163.05319,-69.427887,143.36636,0.012714162,-0.4195585
2820000000,-0.22377667,-22.111591,-70.487198,135.20964,-72.167053,-173.84392,0.0058535305,-0.4723531
2834000000,-0.23483354,-23.345114,-70.997322,-97.707649,-73.697029,13.005404,-0.0064019156,-0.58041114
2848000000,-0.22507556,-24.760679,-69.987076,80.754601,-79.195351,-36.740093,0.014787782,-0.54129344
2862000000,-0.22397754,-26.004707,-70.453995,14.812984,-74.641708,78.788109,0.019811353,-0.4712607
2876000000,-0.21878728,-27.373758,-71.896629,-59.237446,-72.552605,-178.29356,0.032011397,-0.51478785
2890000000,-0.22899745,-28.730804,-62.938667,99.934181,-80.539658,26.638212,0.01985722,-0.51801997
2904000000,-0.23080808,-30.070604,-82.146149,116.7998,-88.889038,93.038406,0.0093771564,-0.54672462
2918000000,-0.23543252,-31.395044,-71.211571,-42.068672,-69.216774,-47.700947,-0.002439661,-0.54659766
2932000000,-0.23549701,-32.726704,-88.027946,148.77768,-74.426102,74.802582,0.0042458111,-0.5425939
2946000000,-0.23175737,-34.072178,-78.136948,-104.71837,-85.478806,169.38606,0.0021790517,-0.60455066
2960000000,-0.23455238,-35.364182,-72.106506,25.912355,-75.188042,46.820351,0.017770035,-0.47228613
2974000000,-0.23511171,-36.650234,-86.910553,66.12043,-82.388016,156.119,0.012366741,-0.49638304
2988000000,-0.23688279,-37.980564,-85.039192,105.59612,-68.791588,-12.031192,0.018826898,-0.53681612
3002000000,-0.24020635,-39.294113,-82.319008,-116.22949,-71.399887,126.13531,0.0069882455,-0.60411966
3016000000,-0.24024601,-40.713596,-84.739052,-65.800797,-80.6651,42.958313,0.0093244631,-0.63892812
3030000000,-0.24164726,-42.057499,-66.988449,-154.01997,-81.7985,-15.057741,-0.010210028,-0.62731004
3044000000,-0.23913759,-43.427509,-80.64164,-13.132748,-79.264229,-94.616783,0.015081869,-0.6113627
3058000000,-0.24617751,-44.709824,-69.753113,171.78825,-76.773956,-10.549723,0.027155248,-0.53347409
3072000000,-0.24833299,-46.075359,-78.218468,29.328003,-71.671829,18.342186,0.019501608,-0.50336307
3086000000,-0.24537626,-47.420036,-77.670891,-177.56952,-66.923645,-173.98343,0.02115109,-0.53917825
3100000000,-0.25050762,-48.734112,-71.016113,100.94808,-68.714767,89.711838,0.012004321,-0.57585883
3114000000,-0.25210533,-50.192764,-78.04908,-120.91451,-73.389587,-59.6828,0.0061316793,-0.5563907
3128000000,-0.25366354,-51.481831,-77.50573,43.574623,-70.787453,125.93338,-0.00025006564,-0.59120083
3142000000,-0.24966967,-52.74226,-76.681145,-74.459793,-73.796577,-82.595764,0.020557534,-0.60332823
3156000000,-0.25206006,-54.133736,-67.481415,17.146198,-68.191093,124.39577,0.018532548,-0.61060011
3170000000,-0.2550661,-55.457767,-66.583244,105.66231,-71.081512,88.594078,0.017646288,-0.65200943
3184000000,-0.25888246,-56.805801,-70.888817,-8.9234772,-87.608337,-80.716187,0.014061766,-0.62119859
3198000000,-0.26819828,-58.19725,-70.185211,4.4199634,-72.922455,76.605713,-0.00051593798,-0.62516552
3212000000,-0.26189736,-59.572807,-78.527992,17.666485,-71.412086,143.01131,0.017246664,-0.69232851
3226000000,-0.2618047,-60.863613,-77.685173,108.8091,-83.983177,49.346142,0.013202981,-0.6840232
3240000000,-0.26740563,-62.229866,-72.875259,-58.954662,-78.913376,-54.496246,0.018460376,-0.6375612
3254000000,-0.27018896,-63.619778,-75.10183,0.67230231,-81.268089,-1.0981477,0.0050727571,-0.56826669
3268000000,-0.27038759,-64.935936,-75.301315,-178.11322,-72.764076,-168.61914,0.0024372565,-0.6922279
3282000000,-0.27326435,-66.383087,-72.099815,58.910831,-66.772713,77.115051,0.0061761402,-0.50024366
3296000000,-0.27427012,-67.776306,-77.915817,-153.46907,-65.29512,-150.82416,0.012991871,-0.64408571
3310000000,-0.28425631,-69.054031,-71.780678,11.558922,-88.17511,94.769753,0.0064847684,-0.68570095
3324000000,-0.28322473,-70.456978,-79.369255,133.26379,-70.47506,37.90839,0.023927668,-0.64655519
3338000000,-0.28303051,-71.794518,-70.483536,-52.019588,-81.983139,-6.2596197,0.0089488719,-0.72416937
3352000000,-0.28605473,-73.161255,-72.137421,169.9593,-72.525978,-144.79752,0.0062511023,-0.67418385
3366000000,-0.28858253,-74.551254,-69.724609,27.059105,-82.287537,108.48991,0.011658392,-0.71353883
3380000000,-0.29765293,-75.926315,-77.625023,121.07359,-78.218475,-25.081896,0.0060205255,-0.67098165
3394000000,-0.2993241,-77.285812,-78.90937,13.386187,-70.956795,67.73484,0.00060568942,-0.64029378
3408000000,-0.30041912,-78.818291,-74.057426,-134.18427,-74.495598,106.35683,0.006006049,-0.72856671
3422000000,-0.29980168,-80.111237,-79.108055,160.60487,-77.344597,-168.10367,0.0021661152,-0.78180146
3436000000,-0.30214378,-81.45475,-71.779488,169.00641,-77.108116,-136.56509,0.021761565,-0.79875892
3450000000,-0.31808543,-82.901604,-75.396698,-179.65878,-66.334633,160.88275,0.020542592,-0.72154576
3464000000,-0.31382602,-84.32093,-78.472954,51.852333,-75.835419,86.479576,0.0029199908,-0.66750997
3478000000,-0.31716055,-85.658333,-72.515366,114.03255,-72.46003,-70.859871,0.0025541938,-0.6727193
3492000000,-0.31831968,-87.099098,-79.835892,-7.3275876,-79.708908,79.827324,0.009127114,-0.69487804
3506000000,-0.33174822,-88.529221,-71.929733,32.956669,-71.28743,116.85082,0.0081820907,-0.71508527
3520000000,-0.32904747,-89.914063,-73.722908,-104.58134,-82.853058,-3.2066245,0.009992904,-0.69969058
3534000000,-0.34248519,-91.356682,-69.079414,-177.83284,-68.997162,131.90219,0.011638771,-0.76965171
3548000000,-0.34597465,-92.779984,-72.977234,-117.49493,-71.074547,12.1369,0.020487456,-0.7954846
3562000000,-0.34675825,-94.172493,-106.71956,78.401154,-69.77874,-129.81812,0.010154574,-0.73208386
3576000000,-0.34879985,-95.664726,-82.445717,122.1487,-76.53006,-28.888422,0.013067748,-0.76403791
3590000000,-0.34835246,-97.059258,-78.035622,-20.020561,-75.106979,-80.583153,0.01027492,-0.74032575
3604000000,-0.37061575,-98.499252,-70.4925,-31.290445,-84.241882,-135.38638,0.023711929,-0.70270073
3618000000,-0.3681691,-99.980751,-72.145454,-40.24345,-71.586197,89.23674,0.0033002421,-0.74199766
3632000000,-0.36827025,-101.37344,-74.173988,25.043186,-75.934387,-173.13995,0.0076823691,-0.70695728
3646000000,-0.39126921,-102.83302,-78.271027,45.049736,-78.520607,28.894444,0.0075485148,-0.71647513
3660000000,-0.38228741,-104.32608,-67.135704,62.489769,-69.419861,63.15641,0.011668202,-0.66003948
3674000000,-0.39552024,-105.67397,-95.369064,-141.0177,-68.638924,-79.012199,0.0098828813,-0.77590454
3688000000,-0.39331827,-107.15256,-74.968979,-92.270088,-79.149467,123.86753,0.0045550941,-0.72897828
3702000000,-0.39889684,-108.60629,-76.066872,-62.505192,-69.243637,-85.702583,0.011910355,-0.75419283
3716000000,-0.41273266,-110.07312,-78.096115,-115.98078,-81.103363,-145.69487,0.019136176,-0.73812503
3730000000,-0.42327243,-111.57317,-73.220375,-10.986881,-80.147652,23.51017,0.0075397287,-0.81570786
3744000000,-0.43539456,-113.07974,-74.785049,113.40683,-77.828949,100.74345,0.016592233,-0.73084265
